
**** 05/31/24 19:46:57 ***** PSpice 23.1.0 (17 April 2024) **** ID# 0 ********

 ** Profile: "SCHEMATIC1-ParametricConvertor"  [ d:\an 2-etti\tehnici cad-proiecte orcad\proiectcad-PSpiceFiles\SCHEMATIC1\Parametric


 ****     CIRCUIT DESCRIPTION


******************************************************************************




** Creating circuit file "ParametricConvertor.cir" 
** WARNING: THIS AUTOMATICALLY GENERATED FILE MAY BE OVERWRITTEN BY SUBSEQUENT SIMULATIONS

*Libraries: 
* Profile Libraries :
* Local Libraries :
.LIB "../../../blueled.lib" 
* From [PSPICE NETLIST] section of C:\Users\bianca\cdssetup\OrCAD_PSpice\23.1.0\PSpice.ini file:
.lib "nom.lib" 

*Analysis directives: 
.TRAN  0 5s 0 1m 
.STEP LIN PARAM r 600k 100k 100k 
.OPTIONS ADVCONV
.PROBE64 V(alias(*)) I(alias(*)) W(alias(*)) D(alias(*)) NOISE(alias(*)) 
.INC "..\SCHEMATIC1.net" 



**** INCLUDING SCHEMATIC1.net ****
* source PROIECTCAD
R_R1         N00105 VCC R_R1 649k TC=0,0 
.model        R_R1 RES R=1 DEV=1% TC1=0 TC2=0
R_Rsenzor         N00140 VCC  {r} TC=0,0 
V_V1         VCC 0 18
Q_Q1         N00140 N00105 N007722 BC107A 
Q_Q2         N00105 N00105 N008072 BC107A 
R_R2         0 N008072 R_R2 1k TC=0,0 
.model        R_R2 RES R=1 DEV=1% TC1=0 TC2=0
R_R3         0 N007722 R_R3 1k TC=0,0 
.model        R_R3 RES R=1 DEV=1% TC1=0 TC2=0
V_V2         -VCC 0 -18
R_R4         N01692 N02095 R_R4 5.36k TC=0,0 
.model        R_R4 RES R=1 DEV=1% TC1=0 TC2=0
R_R5         N02095 0 R_R5 5.62k TC=0,0 
.model        R_R5 RES R=1 DEV=1% TC1=0 TC2=0
R_R6         VREF1 N02162 R_R6 5.36k TC=0,0 
.model        R_R6 RES R=1 DEV=1% TC1=0 TC2=0
R_R7         N02162 N02242 R_R7 5.62k TC=0,0 
.model        R_R7 RES R=1 DEV=1% TC1=0 TC2=0
R_R8         VCC N03370 R_R8 45.3k TC=0,0 
.model        R_R8 RES R=1 DEV=1% TC1=0 TC2=0
R_R9         0 N03370 R_R9 287 TC=0,0 
.model        R_R9 RES R=1 DEV=1% TC1=0 TC2=0
R_R10         VCC N06348 R_R10 14.3k TC=0,0 
.model        R_R10 RES R=1 DEV=1% TC1=0 TC2=0
R_R11         0 N06348 R_R11 10k TC=0,0 
.model        R_R11 RES R=1 DEV=1% TC1=0 TC2=0
R_R12         N06690 VREF2  10k TC=0,0 
R_R13         N06690 N06785 R_R13 169k TC=0,0 
.model        R_R13 RES R=1 DEV=2% TC1=0 TC2=0
R_R14         N07931 N06785  732 TC=0,0 
D_D1         N07931 0 BlueLED 
R_R15         N06785 N08572 R_R15 54.9k TC=0,0 
.model        R_R15 RES R=1 DEV=1% TC1=0 TC2=0
Q_Q3         N08600 N08572 0 BC107A 
R_R16         N08600 VCC R_R16 634 TC=0,0 
.model        R_R16 RES R=1 DEV=1% TC1=0 TC2=0
D_D2         N08600 VCC BlueLED 
V_V3         N10450 0 1V
D_D3         N10450 0 BlueLED 
X_U5         N06690 N02242 VCC -VCC N06785 uA741
X_U6         N02095 N02162 VCC -VCC N02242 uA741
X_U7         N06348 VREF2 VCC -VCC VREF2 uA741
X_U8         N03370 VREF1 VCC -VCC VREF1 uA741
X_U9         N00140 N01692 VCC -VCC N01692 uA741
.PARAM  r=100k

**** RESUMING ParametricConvertor.cir ****
.END

**** 05/31/24 19:46:57 ***** PSpice 23.1.0 (17 April 2024) **** ID# 0 ********

 ** Profile: "SCHEMATIC1-ParametricConvertor"  [ d:\an 2-etti\tehnici cad-proiecte orcad\proiectcad-PSpiceFiles\SCHEMATIC1\Parametric


 ****     Diode MODEL PARAMETERS


******************************************************************************




               BlueLED         X_U5.dx         X_U5.dy         X_U6.dx         
          IS    3.131000E-12  800.000000E-18  800.000000E-18  800.000000E-18 
           N    4.995                                                        
          RS   16.215           1               1.000000E-03    1            
         CJO                                   10.000000E-12                 


               X_U6.dy         X_U7.dx         X_U7.dy         X_U8.dx         
          IS  800.000000E-18  800.000000E-18  800.000000E-18  800.000000E-18 
          RS    1.000000E-03    1               1.000000E-03    1            
         CJO   10.000000E-12                   10.000000E-12                 


               X_U8.dy         X_U9.dx         X_U9.dy         
          IS  800.000000E-18  800.000000E-18  800.000000E-18 
          RS    1.000000E-03    1               1.000000E-03 
         CJO   10.000000E-12                   10.000000E-12 


**** 05/31/24 19:46:57 ***** PSpice 23.1.0 (17 April 2024) **** ID# 0 ********

 ** Profile: "SCHEMATIC1-ParametricConvertor"  [ d:\an 2-etti\tehnici cad-proiecte orcad\proiectcad-PSpiceFiles\SCHEMATIC1\Parametric


 ****     BJT MODEL PARAMETERS


******************************************************************************




               BC107A          X_U5.qx         X_U6.qx         X_U7.qx         
               NPN             NPN             NPN             NPN             
       LEVEL    1               1               1               1            
          IS    7.049000E-15  800.000000E-18  800.000000E-18  800.000000E-18 
          BF  375.5            93.75           93.75           93.75         
          NF    1               1               1               1            
         VAF  116.3                                                          
         IKF    4.589                                                        
         ISE    7.049000E-15                                                 
          NE    1.281                                                        
          BR    2.611           1               1               1            
          NR    1               1               1               1            
         IKR    5.313                                                        
         ISC  121.700000E-12                                                 
          NC    1.865                                                        
         ISS    0               0               0               0            
          RE    0               0               0               0            
          RC    1.464           0               0               0            
         CJE   11.500000E-12    0               0               0            
         VJE     .5              .75             .75             .75         
         MJE     .2717                                                       
         CJC    5.380000E-12    0               0               0            
         VJC     .6218           .75             .75             .75         
         MJC     .329            .33             .33             .33         
        XCJC    1               1               1               1            
         CJS    0               0               0               0            
         VJS     .75             .75             .75             .75         
          TF  451.000000E-12                                                 
         XTF   17.43                                                         
         VTF   10                                                            
         ITF    6.194                                                        
          TR   10.000000E-09                                                 
         XTB    1.5                                                          
          KF    0               0               0               0            
          AF    1               1               1               1            
          CN    2.42            2.42            2.42            2.42         
           D     .87             .87             .87             .87         


               X_U8.qx         X_U9.qx         
               NPN             NPN             
       LEVEL    1               1            
          IS  800.000000E-18  800.000000E-18 
          BF   93.75           93.75         
          NF    1               1            
          BR    1               1            
          NR    1               1            
         ISS    0               0            
          RE    0               0            
          RC    0               0            
         CJE    0               0            
         VJE     .75             .75         
         CJC    0               0            
         VJC     .75             .75         
         MJC     .33             .33         
        XCJC    1               1            
         CJS    0               0            
         VJS     .75             .75         
          KF    0               0            
          AF    1               1            
          CN    2.42            2.42         
           D     .87             .87         


**** 05/31/24 19:46:57 ***** PSpice 23.1.0 (17 April 2024) **** ID# 0 ********

 ** Profile: "SCHEMATIC1-ParametricConvertor"  [ d:\an 2-etti\tehnici cad-proiecte orcad\proiectcad-PSpiceFiles\SCHEMATIC1\Parametric


 ****     Resistor MODEL PARAMETERS


******************************************************************************




               R_R1            R_R2            R_R3            R_R4            
           R    1               1               1               1            


               R_R5            R_R6            R_R7            R_R8            
           R    1               1               1               1            


               R_R9            R_R10           R_R11           R_R13           
           R    1               1               1               1            


               R_R15           R_R16           
           R    1               1            


**** 05/31/24 19:46:57 ***** PSpice 23.1.0 (17 April 2024) **** ID# 0 ********

 ** Profile: "SCHEMATIC1-ParametricConvertor"  [ d:\an 2-etti\tehnici cad-proiecte orcad\proiectcad-PSpiceFiles\SCHEMATIC1\Parametric


 ****     INITIAL TRANSIENT SOLUTION       TEMPERATURE =   27.000 DEG C

 ****     CURRENT STEP                     PARAM R =  600.0000E+03


******************************************************************************



 NODE   VOLTAGE     NODE   VOLTAGE     NODE   VOLTAGE     NODE   VOLTAGE


(  VCC)   18.0000  ( -VCC)  -18.0000  (VREF1)     .1133  (VREF2)    7.4067      

(N00105)     .5965 (N00140)    2.0949 (N01692)    2.0948 (N02095)    1.0720     

(N02162)    1.0720 (N02242)    2.0776 (N03370)     .1133 (N06348)    7.4069     

(N06690)    7.9856 (N06785)   17.7980 (N07931)    3.2387 (N08572)     .7512     

(N08600)     .1580 (N10450)    1.0000 (X_U5.6)   -1.5507 (X_U5.7)   19.8290     

(X_U5.8)   19.8290 (X_U5.9)    0.0000 (X_U6.6)-198.4E-06 (X_U6.7)    2.0865     

(X_U6.8)    2.0865 (X_U6.9)    0.0000 (X_U7.6)-697.3E-06 (X_U7.7)    7.4038     

(X_U7.8)    7.4038 (X_U7.9)    0.0000 (X_U8.6)-8.119E-06 (X_U8.7)     .1044     

(X_U8.8)     .1044 (X_U8.9)    0.0000 (X_U9.6)-200.2E-06 (X_U9.7)    2.1044     

(X_U9.8)    2.1044 (X_U9.9)    0.0000 (N007722)     .0267                       

(N008072)     .0265                   (X_U5.10)    7.3441                       

(X_U5.11)   18.0000                   (X_U5.12)   17.9180                       

(X_U5.13)    7.3441                   (X_U5.14)    7.3729                       

(X_U5.53)   17.0000                   (X_U5.54)  -17.0000                       

(X_U5.90)   40.6110                   (X_U5.91)   40.0000                       

(X_U5.92)  -40.0000                   (X_U5.99)    0.0000                       

(X_U6.10)     .4641                   (X_U6.11)   17.9600                       

(X_U6.12)   17.9600                   (X_U6.13)     .4781                       

(X_U6.14)     .4781                   (X_U6.53)   17.0000                       

(X_U6.54)  -17.0000                   (X_U6.90)     .1789                       

(X_U6.91)   40.0000                   (X_U6.92)  -40.0000                       

(X_U6.99)    0.0000                   (X_U7.10)    6.7977                       

(X_U7.11)   17.9590                   (X_U7.12)   17.9590                       

(X_U7.13)    6.8120                   (X_U7.14)    6.8121                       

(X_U7.53)   17.0000                   (X_U7.54)  -17.0000                       

(X_U7.90)    -.0578                   (X_U7.91)   40.0000                       

(X_U7.92)  -40.0000                   (X_U7.99)    0.0000                       

(X_U8.10)    -.4944                   (X_U8.11)   17.9600                       

(X_U8.12)   17.9600                   (X_U8.13)    -.4805                       

(X_U8.14)    -.4805                   (X_U8.53)   17.0000                       

(X_U8.54)  -17.0000                   (X_U8.90)    -.1788                       

(X_U8.91)   40.0000                   (X_U8.92)  -40.0000                       

(X_U8.99)    0.0000                   (X_U9.10)    1.4868                       

(X_U9.11)   17.9600                   (X_U9.12)   17.9600                       

(X_U9.13)    1.5008                   (X_U9.14)    1.5008                       

(X_U9.53)   17.0000                   (X_U9.54)  -17.0000                       

(X_U9.90)     .1909                   (X_U9.91)   40.0000                       

(X_U9.92)  -40.0000                   (X_U9.99)    0.0000                   




    VOLTAGE SOURCE CURRENTS
    NAME         CURRENT

    V_V1        -1.897E-02
    V_V2         9.988E-03
    V_V3        -7.198E-09
    X_U5.vb     -1.551E-05
    X_U5.vc     -2.035E-02
    X_U5.ve      3.713E-11
    X_U5.vlim    4.061E-02
    X_U5.vlp     1.439E-05
    X_U5.vln    -8.061E-11
    X_U6.vb     -1.984E-09
    X_U6.vc      1.492E-11
    X_U6.ve      2.141E-11
    X_U6.vlim    1.789E-04
    X_U6.vlp    -3.982E-11
    X_U6.vln    -4.018E-11
    X_U7.vb     -6.973E-09
    X_U7.vc      9.594E-12
    X_U7.ve      2.673E-11
    X_U7.vlim   -5.782E-05
    X_U7.vlp    -4.006E-11
    X_U7.vln    -3.995E-11
    X_U8.vb     -8.119E-11
    X_U8.vc      1.689E-11
    X_U8.ve      1.944E-11
    X_U8.vlim   -1.788E-04
    X_U8.vlp    -4.018E-11
    X_U8.vln    -3.983E-11
    X_U9.vb     -2.002E-09
    X_U9.vc      1.491E-11
    X_U9.ve      2.142E-11
    X_U9.vlim    1.909E-04
    X_U9.vlp    -3.981E-11
    X_U9.vln    -4.019E-11

    TOTAL POWER DISSIPATION   5.41E-01  WATTS


**** 05/31/24 19:46:57 ***** PSpice 23.1.0 (17 April 2024) **** ID# 0 ********

 ** Profile: "SCHEMATIC1-ParametricConvertor"  [ d:\an 2-etti\tehnici cad-proiecte orcad\proiectcad-PSpiceFiles\SCHEMATIC1\Parametric


 ****     INITIAL TRANSIENT SOLUTION       TEMPERATURE =   27.000 DEG C

 ****     CURRENT STEP                     PARAM R =  500.0000E+03


******************************************************************************



 NODE   VOLTAGE     NODE   VOLTAGE     NODE   VOLTAGE     NODE   VOLTAGE


(  VCC)   18.0000  ( -VCC)  -18.0000  (VREF1)     .1133  (VREF2)    7.4067      

(N00105)     .5966 (N00140)    4.6052 (N01692)    4.6050 (N02095)    2.3568     

(N02162)    2.3567 (N02242)    4.7095 (N03370)     .1133 (N06348)    7.4069     

(N06690)    7.9856 (N06785)   17.7980 (N07931)    3.2387 (N08572)     .7512     

(N08600)     .1580 (N10450)    1.0000 (X_U5.6)   -1.5507 (X_U5.7)   19.8290     

(X_U5.8)   19.8290 (X_U5.9)    0.0000 (X_U6.6)-449.9E-06 (X_U6.7)    4.7304     

(X_U6.8)    4.7304 (X_U6.9)    0.0000 (X_U7.6)-697.3E-06 (X_U7.7)    7.4038     

(X_U7.8)    7.4038 (X_U7.9)    0.0000 (X_U8.6)-4.685E-06 (X_U8.7)     .0924     

(X_U8.8)     .0924 (X_U8.9)    0.0000 (X_U9.6)-440.0E-06 (X_U9.7)    4.6260     

(X_U9.8)    4.6260 (X_U9.9)    0.0000 (N007722)     .0270                       

(N008072)     .0265                   (X_U5.10)    7.3441                       

(X_U5.11)   18.0000                   (X_U5.12)   17.9180                       

(X_U5.13)    7.3441                   (X_U5.14)    7.3729                       

(X_U5.53)   17.0000                   (X_U5.54)  -17.0000                       

(X_U5.90)   40.6110                   (X_U5.91)   40.0000                       

(X_U5.92)  -40.0000                   (X_U5.99)    0.0000                       

(X_U6.10)    1.7486                   (X_U6.11)   17.9600                       

(X_U6.12)   17.9600                   (X_U6.13)    1.7627                       

(X_U6.14)    1.7627                   (X_U6.53)   17.0000                       

(X_U6.54)  -17.0000                   (X_U6.90)     .4186                       

(X_U6.91)   40.0000                   (X_U6.92)  -40.0000                       

(X_U6.99)    0.0000                   (X_U7.10)    6.7977                       

(X_U7.11)   17.9590                   (X_U7.12)   17.9590                       

(X_U7.13)    6.8120                   (X_U7.14)    6.8121                       

(X_U7.53)   17.0000                   (X_U7.54)  -17.0000                       

(X_U7.90)    -.0578                   (X_U7.91)   40.0000                       

(X_U7.92)  -40.0000                   (X_U7.99)    0.0000                       

(X_U8.10)    -.4944                   (X_U8.11)   17.9600                       

(X_U8.12)   17.9600                   (X_U8.13)    -.4805                       

(X_U8.14)    -.4805                   (X_U8.53)   17.0000                       

(X_U8.54)  -17.0000                   (X_U8.90)    -.4185                       

(X_U8.91)   40.0000                   (X_U8.92)  -40.0000                       

(X_U8.99)    0.0000                   (X_U9.10)    3.9965                       

(X_U9.11)   17.9590                   (X_U9.12)   17.9590                       

(X_U9.13)    4.0107                   (X_U9.14)    4.0108                       

(X_U9.53)   17.0000                   (X_U9.54)  -17.0000                       

(X_U9.90)     .4195                   (X_U9.91)   40.0000                       

(X_U9.92)  -40.0000                   (X_U9.99)    0.0000                   




    VOLTAGE SOURCE CURRENTS
    NAME         CURRENT

    V_V1        -1.897E-02
    V_V2         9.988E-03
    V_V3        -7.198E-09
    X_U5.vb     -1.551E-05
    X_U5.vc     -2.035E-02
    X_U5.ve      3.713E-11
    X_U5.vlim    4.061E-02
    X_U5.vlp     1.439E-05
    X_U5.vln    -8.061E-11
    X_U6.vb     -4.499E-09
    X_U6.vc      1.229E-11
    X_U6.ve      2.404E-11
    X_U6.vlim    4.186E-04
    X_U6.vlp    -3.958E-11
    X_U6.vln    -4.042E-11
    X_U7.vb     -6.973E-09
    X_U7.vc      9.594E-12
    X_U7.ve      2.673E-11
    X_U7.vlim   -5.782E-05
    X_U7.vlp    -4.006E-11
    X_U7.vln    -3.995E-11
    X_U8.vb     -4.685E-11
    X_U8.vc      1.689E-11
    X_U8.ve      1.944E-11
    X_U8.vlim   -4.185E-04
    X_U8.vlp    -4.042E-11
    X_U8.vln    -3.959E-11
    X_U9.vb     -4.400E-09
    X_U9.vc      1.240E-11
    X_U9.ve      2.393E-11
    X_U9.vlim    4.195E-04
    X_U9.vlp    -3.958E-11
    X_U9.vln    -4.042E-11

    TOTAL POWER DISSIPATION   5.41E-01  WATTS


**** 05/31/24 19:46:57 ***** PSpice 23.1.0 (17 April 2024) **** ID# 0 ********

 ** Profile: "SCHEMATIC1-ParametricConvertor"  [ d:\an 2-etti\tehnici cad-proiecte orcad\proiectcad-PSpiceFiles\SCHEMATIC1\Parametric


 ****     INITIAL TRANSIENT SOLUTION       TEMPERATURE =   27.000 DEG C

 ****     CURRENT STEP                     PARAM R =  400.0000E+03


******************************************************************************



 NODE   VOLTAGE     NODE   VOLTAGE     NODE   VOLTAGE     NODE   VOLTAGE


(  VCC)   18.0000  ( -VCC)  -18.0000  (VREF1)     .1133  (VREF2)    7.4067      

(N00105)     .5966 (N00140)    7.1710 (N01692)    7.1708 (N02095)    3.6701     

(N02162)    3.6699 (N02242)    7.3996 (N03370)     .1133 (N06348)    7.4069     

(N06690)    7.3998 (N06785)    7.2977 (N07931)    2.8609 (N08572)     .7495     

(N08600)     .8919 (N10450)    1.0000 (X_U5.6)-776.3E-06 (X_U5.7)    7.6067     

(X_U5.8)    7.6067 (X_U5.9)    0.0000 (X_U6.6)-706.9E-06 (X_U6.7)    7.4327     

(X_U6.8)    7.4327 (X_U6.9)    0.0000 (X_U7.6)-698.1E-06 (X_U7.7)    7.4067     

(X_U7.8)    7.4067 (X_U7.9)    0.0000 (X_U8.6)-1.175E-06 (X_U8.7)     .0801     

(X_U8.8)     .0801 (X_U8.9)    0.0000 (X_U9.6)-685.2E-06 (X_U9.7)    7.2035     

(X_U9.8)    7.2035 (X_U9.9)    0.0000 (N007722)     .0273                       

