
**** 06/04/24 14:34:54 ***** PSpice 23.1.0 (17 April 2024) **** ID# 0 ********

 ** Profile: "SCHEMATIC1-curentSenzor"  [ d:\an 2-etti\tehnici cad-proiecte orcad\proiectcad-pspicefiles\schematic1\curentsenzor.sim 


 ****     CIRCUIT DESCRIPTION


******************************************************************************




** Creating circuit file "curentSenzor.cir" 
** WARNING: THIS AUTOMATICALLY GENERATED FILE MAY BE OVERWRITTEN BY SUBSEQUENT SIMULATIONS

*Libraries: 
* Profile Libraries :
* Local Libraries :
.LIB "../../../blueled.lib" 
* From [PSPICE NETLIST] section of C:\Users\bianca\cdssetup\OrCAD_PSpice\23.1.0\PSpice.ini file:
.lib "nom.lib" 

*Analysis directives: 
.TRAN  0 10s 0 1m 
.OPTIONS ADVCONV
.PROBE64 V(alias(*)) I(alias(*)) W(alias(*)) D(alias(*)) NOISE(alias(*)) 
.INC "..\SCHEMATIC1.net" 



**** INCLUDING SCHEMATIC1.net ****
* source PROIECTCAD
R_R1         N00105 VCC R_R1 649k TC=0,0 
.model        R_R1 RES R=1 DEV=1% TC1=0 TC2=0
R_Rsenzor         N00140 VCC  {r} TC=0,0 
V_V1         VCC 0 18
Q_Q1         N00140 N00105 N007722 BC107A 
Q_Q2         N00105 N00105 N008072 BC107A 
R_R2         0 N008072 R_R2 1k TC=0,0 
.model        R_R2 RES R=1 DEV=1% TC1=0 TC2=0
R_R3         0 N007722 R_R3 1k TC=0,0 
.model        R_R3 RES R=1 DEV=1% TC1=0 TC2=0
V_V2         -VCC 0 -18
R_R4         N01692 N02095 R_R4 5.36k TC=0,0 
.model        R_R4 RES R=1 DEV=1% TC1=0 TC2=0
R_R5         N02095 0 R_R5 5.62k TC=0,0 
.model        R_R5 RES R=1 DEV=1% TC1=0 TC2=0
R_R6         VREF1 N02162 R_R6 5.36k TC=0,0 
.model        R_R6 RES R=1 DEV=1% TC1=0 TC2=0
R_R7         N02162 N02242 R_R7 5.62k TC=0,0 
.model        R_R7 RES R=1 DEV=1% TC1=0 TC2=0
R_R8         VCC N03370 R_R8 45.3k TC=0,0 
.model        R_R8 RES R=1 DEV=1% TC1=0 TC2=0
R_R9         0 N03370 R_R9 287 TC=0,0 
.model        R_R9 RES R=1 DEV=1% TC1=0 TC2=0
R_R10         VCC N06348 R_R10 14.3k TC=0,0 
.model        R_R10 RES R=1 DEV=1% TC1=0 TC2=0
R_R11         0 N06348 R_R11 10k TC=0,0 
.model        R_R11 RES R=1 DEV=1% TC1=0 TC2=0
R_R12         N06690 VREF2  10k TC=0,0 
R_R13         N06690 N06785 R_R13 169k TC=0,0 
.model        R_R13 RES R=1 DEV=2% TC1=0 TC2=0
R_R14         N07931 N06785  732 TC=0,0 
D_D1         N07931 0 BlueLED 
R_R15         N06785 N08572 R_R15 54.9k TC=0,0 
.model        R_R15 RES R=1 DEV=1% TC1=0 TC2=0
Q_Q3         N08600 N08572 0 BC107A 
R_R16         N08600 VCC R_R16 634 TC=0,0 
.model        R_R16 RES R=1 DEV=1% TC1=0 TC2=0
D_D2         N08600 VCC BlueLED 
V_V3         N10450 0 1V
D_D3         N10450 0 BlueLED 
X_U5         N06690 N02242 VCC -VCC N06785 uA741
X_U6         N02095 N02162 VCC -VCC N02242 uA741
X_U7         N06348 VREF2 VCC -VCC VREF2 uA741
X_U8         N03370 VREF1 VCC -VCC VREF1 uA741
X_U9         N00140 N01692 VCC -VCC N01692 uA741
.PARAM  r=100k

**** RESUMING curentSenzor.cir ****
.END

**** 06/04/24 14:34:54 ***** PSpice 23.1.0 (17 April 2024) **** ID# 0 ********

 ** Profile: "SCHEMATIC1-curentSenzor"  [ d:\an 2-etti\tehnici cad-proiecte orcad\proiectcad-pspicefiles\schematic1\curentsenzor.sim 


 ****     Diode MODEL PARAMETERS


******************************************************************************




               BlueLED         X_U5.dx         X_U5.dy         X_U6.dx         
          IS    3.131000E-12  800.000000E-18  800.000000E-18  800.000000E-18 
           N    4.995                                                        
          RS   16.215           1               1.000000E-03    1            
         CJO                                   10.000000E-12                 


               X_U6.dy         X_U7.dx         X_U7.dy         X_U8.dx         
          IS  800.000000E-18  800.000000E-18  800.000000E-18  800.000000E-18 
          RS    1.000000E-03    1               1.000000E-03    1            
         CJO   10.000000E-12                   10.000000E-12                 


               X_U8.dy         X_U9.dx         X_U9.dy         
          IS  800.000000E-18  800.000000E-18  800.000000E-18 
          RS    1.000000E-03    1               1.000000E-03 
         CJO   10.000000E-12                   10.000000E-12 


**** 06/04/24 14:34:54 ***** PSpice 23.1.0 (17 April 2024) **** ID# 0 ********

 ** Profile: "SCHEMATIC1-curentSenzor"  [ d:\an 2-etti\tehnici cad-proiecte orcad\proiectcad-pspicefiles\schematic1\curentsenzor.sim 


 ****     BJT MODEL PARAMETERS


******************************************************************************




               BC107A          X_U5.qx         X_U6.qx         X_U7.qx         
               NPN             NPN             NPN             NPN             
       LEVEL    1               1               1               1            
          IS    7.049000E-15  800.000000E-18  800.000000E-18  800.000000E-18 
          BF  375.5            93.75           93.75           93.75         
          NF    1               1               1               1            
         VAF  116.3                                                          
         IKF    4.589                                                        
         ISE    7.049000E-15                                                 
          NE    1.281                                                        
          BR    2.611           1               1               1            
          NR    1               1               1               1            
         IKR    5.313                                                        
         ISC  121.700000E-12                                                 
          NC    1.865                                                        
         ISS    0               0               0               0            
          RE    0               0               0               0            
          RC    1.464           0               0               0            
         CJE   11.500000E-12    0               0               0            
         VJE     .5              .75             .75             .75         
         MJE     .2717                                                       
         CJC    5.380000E-12    0               0               0            
         VJC     .6218           .75             .75             .75         
         MJC     .329            .33             .33             .33         
        XCJC    1               1               1               1            
         CJS    0               0               0               0            
         VJS     .75             .75             .75             .75         
          TF  451.000000E-12                                                 
         XTF   17.43                                                         
         VTF   10                                                            
         ITF    6.194                                                        
          TR   10.000000E-09                                                 
         XTB    1.5                                                          
          KF    0               0               0               0            
          AF    1               1               1               1            
          CN    2.42            2.42            2.42            2.42         
           D     .87             .87             .87             .87         


               X_U8.qx         X_U9.qx         
               NPN             NPN             
       LEVEL    1               1            
          IS  800.000000E-18  800.000000E-18 
          BF   93.75           93.75         
          NF    1               1            
          BR    1               1            
          NR    1               1            
         ISS    0               0            
          RE    0               0            
          RC    0               0            
         CJE    0               0            
         VJE     .75             .75         
         CJC    0               0            
         VJC     .75             .75         
         MJC     .33             .33         
        XCJC    1               1            
         CJS    0               0            
         VJS     .75             .75         
          KF    0               0            
          AF    1               1            
          CN    2.42            2.42         
           D     .87             .87         


**** 06/04/24 14:34:54 ***** PSpice 23.1.0 (17 April 2024) **** ID# 0 ********

 ** Profile: "SCHEMATIC1-curentSenzor"  [ d:\an 2-etti\tehnici cad-proiecte orcad\proiectcad-pspicefiles\schematic1\curentsenzor.sim 


 ****     Resistor MODEL PARAMETERS


******************************************************************************




               R_R1            R_R2            R_R3            R_R4            
           R    1               1               1               1            


               R_R5            R_R6            R_R7            R_R8            
           R    1               1               1               1            


               R_R9            R_R10           R_R11           R_R13           
           R    1               1               1               1            


               R_R15           R_R16           
           R    1               1            


**** 06/04/24 14:34:54 ***** PSpice 23.1.0 (17 April 2024) **** ID# 0 ********

 ** Profile: "SCHEMATIC1-curentSenzor"  [ d:\an 2-etti\tehnici cad-proiecte orcad\proiectcad-pspicefiles\schematic1\curentsenzor.sim 


 ****     INITIAL TRANSIENT SOLUTION       TEMPERATURE =   27.000 DEG C


******************************************************************************



 NODE   VOLTAGE     NODE   VOLTAGE     NODE   VOLTAGE     NODE   VOLTAGE


(  VCC)   18.0000  ( -VCC)  -18.0000  (VREF1)     .1133  (VREF2)    7.4067      

(N00105)     .5966 (N00140)   15.2070 (N01692)   15.2060 (N02095)    7.7831     

(N02162)    7.7828 (N02242)   15.8250 (N03370)     .1133 (N06348)    7.4069     

(N06690)    5.9976 (N06785)  -17.8160 (N07931)  -17.8160 (N08572)  -17.8160     

(N08600)   18.0000 (N10450)    1.0000 (X_U5.6)    1.6229 (X_U5.7)  -19.8470     

(X_U5.8)  -19.8470 (X_U5.9)    0.0000 (X_U6.6)    -.0015 (X_U6.7)   15.8960     

(X_U6.8)   15.8960 (X_U6.9)    0.0000 (X_U7.6)-700.1E-06 (X_U7.7)    7.4137     

(X_U7.8)    7.4137 (X_U7.9)    0.0000 (X_U8.6) 9.817E-06 (X_U8.7)     .0418     

(X_U8.8)     .0418 (X_U8.9)    0.0000 (X_U9.6)    -.0015 (X_U9.7)   15.2760     

(X_U9.8)   15.2760 (X_U9.9)    0.0000 (N007722)     .0281                       

(N008072)     .0266                   (X_U5.10)   15.1810                       

(X_U5.11)   17.9140                   (X_U5.12)   18.0000                       

(X_U5.13)   15.2110                   (X_U5.14)   15.1810                       

(X_U5.53)   17.0000                   (X_U5.54)  -17.0000                       

(X_U5.90)  -40.6080                   (X_U5.91)   40.0000                       

(X_U5.92)  -40.0000                   (X_U5.99)    0.0000                       

(X_U6.10)    7.1737                   (X_U6.11)   17.9590                       

(X_U6.12)   17.9590                   (X_U6.13)    7.1881                       

(X_U6.14)    7.1882                   (X_U6.53)   17.0000                       

(X_U6.54)  -17.0000                   (X_U6.90)    1.4311                       

(X_U6.91)   40.0000                   (X_U6.92)  -40.0000                       

(X_U6.99)    0.0000                   (X_U7.10)    6.7977                       

(X_U7.11)   17.9590                   (X_U7.12)   17.9590                       

(X_U7.13)    6.8120                   (X_U7.14)    6.8121                       

(X_U7.53)   17.0000                   (X_U7.54)  -17.0000                       

(X_U7.90)     .1410                   (X_U7.91)   40.0000                       

(X_U7.92)  -40.0000                   (X_U7.99)    0.0000                       

(X_U8.10)    -.4944                   (X_U8.11)   17.9600                       

(X_U8.12)   17.9600                   (X_U8.13)    -.4805                       

(X_U8.14)    -.4805                   (X_U8.53)   17.0000                       

(X_U8.54)  -17.0000                   (X_U8.90)   -1.4308                       

(X_U8.91)   40.0000                   (X_U8.92)  -40.0000                       

(X_U8.99)    0.0000                   (X_U9.10)   14.5960                       

(X_U9.11)   17.9580                   (X_U9.12)   17.9570                       

(X_U9.13)   14.6110                   (X_U9.14)   14.6110                       

(X_U9.53)   17.0000                   (X_U9.54)  -17.0000                       

(X_U9.90)    1.3851                   (X_U9.91)   40.0000                       

(X_U9.92)  -40.0000                   (X_U9.99)    0.0000                   




    VOLTAGE SOURCE CURRENTS
    NAME         CURRENT

    V_V1        -1.118E-02
    V_V2        -3.048E-02
    V_V3        -7.198E-09
    X_U5.vb      1.623E-05
    X_U5.vc      3.482E-11
    X_U5.ve     -4.047E-02
    X_U5.vlim   -4.061E-02
    X_U5.vlp    -8.061E-11
    X_U5.vln     1.315E-05
    X_U6.vb     -1.512E-08
    X_U6.vc      1.176E-12
    X_U6.ve      3.515E-11
    X_U6.vlim    1.431E-03
    X_U6.vlp    -3.857E-11
    X_U6.vln    -4.144E-11
    X_U7.vb     -7.001E-09
    X_U7.vc      9.594E-12
    X_U7.ve      2.673E-11
    X_U7.vlim    1.410E-04
    X_U7.vlp    -3.986E-11
    X_U7.vln    -4.015E-11
    X_U8.vb      9.817E-11
    X_U8.vc      1.689E-11
    X_U8.ve      1.944E-11
    X_U8.vlim   -1.431E-03
    X_U8.vlp    -4.143E-11
    X_U8.vln    -3.857E-11
    X_U9.vb     -1.453E-08
    X_U9.vc      1.794E-12
    X_U9.ve      3.453E-11
    X_U9.vlim    1.385E-03
    X_U9.vlp    -3.862E-11
    X_U9.vln    -4.139E-11

    TOTAL POWER DISSIPATION  -3.07E-01  WATTS



          JOB CONCLUDED

**** 06/04/24 14:34:54 ***** PSpice 23.1.0 (17 April 2024) **** ID# 0 ********

 ** Profile: "SCHEMATIC1-curentSenzor"  [ d:\an 2-etti\tehnici cad-proiecte orcad\proiectcad-pspicefiles\schematic1\curentsenzor.sim 


 ****     JOB STATISTICS SUMMARY


******************************************************************************



  Total job time (using Solver 1)   =        2.73
